T29B0 000:006.333   SEGGER J-Link V7.58d Log File
T29B0 000:006.477   DLL Compiled: Dec  2 2021 15:22:35
T29B0 000:006.487   Logging started @ 2021-12-05 15:43
T29B0 000:006.495 - 6.499ms
T29B0 000:006.510 JLINK_SetWarnOutHandler(...)
T29B0 000:006.521 - 0.014ms
T29B0 000:006.531 JLINK_OpenEx(...)
T29B0 000:008.010   Firmware: J-Link V9 compiled May  7 2021 16:26:12
T29B0 000:008.298   Firmware: J-Link V9 compiled May  7 2021 16:26:12
T29B0 000:008.510   Decompressing FW timestamp took 171 us
T29B0 000:014.332   Hardware: V9.50
T29B0 000:014.361   S/N: 63555507
T29B0 000:014.379   OEM: SEGGER
T29B0 000:014.392   Feature(s): }ци, RDI, FlashBP, FlashDL, JFlash
T29B0 000:015.395   TELNET listener socket opened on port 19021
T29B0 000:015.531   WEBSRV WEBSRV_Init(): Starting webserver thread(s)
T29B0 000:015.726   WEBSRV Webserver running on local port 19080
T29B0 000:020.408 - 13.896ms returns "O.K."
T29B0 000:020.453 JLINK_GetEmuCaps()
T29B0 000:020.463 - 0.014ms returns 0xB9FF7BBF
T29B0 000:020.477 JLINK_TIF_GetAvailable(...)
T29B0 000:020.617 - 0.152ms
T29B0 000:020.642 JLINK_SetErrorOutHandler(...)
T29B0 000:020.651 - 0.013ms
T29B0 000:020.683 JLINK_ExecCommand("ProjectFile = "C:\Users\ALI\Desktop\V001\final_main\MDK-ARM\JLinkSettings.ini"", ...). 
T29B0 000:033.443   Ref file found at: D:\Work Apps\Keil\ARM\Segger\JLinkDevices.ref
T29B0 000:033.587   XML referenced by ref file: C:\Program Files\SEGGER\JLink_V758d\JLinkDevices.xml
T29B0 000:034.425   C:\Program Files\SEGGER\JLink_V758d\JLinkDevices.xml evaluated successfully.
T29B0 000:072.833 - 52.163ms returns 0x00
T29B0 000:075.804 JLINK_ExecCommand("Device = STM32F103ZE", ...). 
T29B0 000:078.539   Device "STM32F103ZE" selected.
T29B0 000:078.882 - 3.059ms returns 0x00
T29B0 000:078.908 JLINK_ExecCommand("DisableConnectionTimeout", ...). 
T29B0 000:078.926 - 0.009ms returns 0x01
T29B0 000:078.942 JLINK_GetHardwareVersion()
T29B0 000:078.954 - 0.017ms returns 95000
T29B0 000:078.979 JLINK_GetDLLVersion()
T29B0 000:078.991 - 0.017ms returns 75804
T29B0 000:079.005 JLINK_GetOEMString(...)
T29B0 000:079.020 JLINK_GetFirmwareString(...)
T29B0 000:079.032 - 0.017ms
T29B0 000:086.390 JLINK_GetDLLVersion()
T29B0 000:086.423 - 0.037ms returns 75804
T29B0 000:086.435 JLINK_GetCompileDateTime()
T29B0 000:086.443 - 0.012ms
T29B0 000:089.016 JLINK_GetFirmwareString(...)
T29B0 000:089.044 - 0.032ms
T29B0 000:091.332 JLINK_GetHardwareVersion()
T29B0 000:091.355 - 0.027ms returns 95000
T29B0 000:093.514 JLINK_GetSN()
T29B0 000:093.537 - 0.027ms returns 63555507
T29B0 000:095.804 JLINK_GetOEMString(...)
T29B0 000:100.553 JLINK_TIF_Select(JLINKARM_TIF_SWD)
T29B0 000:101.384 - 0.848ms returns 0x00
T29B0 000:101.411 JLINK_HasError()
T29B0 000:101.430 JLINK_SetSpeed(50000)
T29B0 000:101.580 - 0.159ms
T29B0 000:101.601 JLINK_GetId()
T29B0 000:104.596   InitTarget() start
T29B0 000:104.647    J-Link Script File: Executing InitTarget()
T29B0 000:111.599   InitTarget() end
T29B0 000:114.536   Found SW-DP with ID 0x1BA01477
T29B0 000:118.759   DPIDR: 0x1BA01477
T29B0 000:120.981   CoreSight SoC-400 or earlier
T29B0 000:123.678   Scanning AP map to find all available APs
T29B0 000:126.709   AP[1]: Stopped AP scan as end of AP map has been reached
T29B0 000:128.974   AP[0]: AHB-AP (IDR: 0x14770011)
T29B0 000:131.664   Iterating through AP map to find AHB-AP to use
T29B0 000:135.465   AP[0]: Core found
T29B0 000:138.316   AP[0]: AHB-AP ROM base: 0xE00FF000
T29B0 000:141.188   CPUID register: 0x411FC231. Implementer code: 0x41 (ARM)
T29B0 000:143.429   Found Cortex-M3 r1p1, Little endian.
T29B0 000:244.931   -- Max. mem block: 0x0000B168
T29B0 000:245.194   CPU_ReadMem(4 bytes @ 0xE000EDF0)
T29B0 000:245.628   CPU_WriteMem(4 bytes @ 0xE000EDF0)
T29B0 000:245.975   CPU_ReadMem(4 bytes @ 0xE0002000)
T29B0 000:249.253   FPUnit: 6 code (BP) slots and 2 literal slots
T29B0 000:249.315   CPU_ReadMem(4 bytes @ 0xE000EDFC)
T29B0 000:249.714   CPU_WriteMem(4 bytes @ 0xE000EDFC)
T29B0 000:250.033   CPU_ReadMem(4 bytes @ 0xE0001000)
T29B0 000:250.352   CPU_WriteMem(4 bytes @ 0xE0001000)
T29B0 000:250.727   CPU_ReadMem(4 bytes @ 0xE000ED88)
T29B0 000:251.018   CPU_WriteMem(4 bytes @ 0xE000ED88)
T29B0 000:251.253   CPU_ReadMem(4 bytes @ 0xE000ED88)
T29B0 000:251.528   CPU_WriteMem(4 bytes @ 0xE000ED88)
T29B0 000:254.136   CoreSight components:
T29B0 000:256.894   ROMTbl[0] @ E00FF000
T29B0 000:256.931   CPU_ReadMem(64 bytes @ 0xE00FF000)
T29B0 000:257.380   CPU_ReadMem(32 bytes @ 0xE000EFE0)
T29B0 000:260.051   [0][0]: E000E000 CID B105E00D PID 001BB000 SCS
T29B0 000:260.082   CPU_ReadMem(32 bytes @ 0xE0001FE0)
T29B0 000:262.695   [0][1]: E0001000 CID B105E00D PID 001BB002 DWT
T29B0 000:262.727   CPU_ReadMem(32 bytes @ 0xE0002FE0)
T29B0 000:265.399   [0][2]: E0002000 CID B105E00D PID 000BB003 FPB
T29B0 000:265.435   CPU_ReadMem(32 bytes @ 0xE0000FE0)
T29B0 000:268.089   [0][3]: E0000000 CID B105E00D PID 001BB001 ITM
T29B0 000:268.122   CPU_ReadMem(32 bytes @ 0xE0040FE0)
T29B0 000:271.033   [0][4]: E0040000 CID B105900D PID 001BB923 TPIU-Lite
T29B0 000:271.078   CPU_ReadMem(32 bytes @ 0xE0041FE0)
T29B0 000:274.115   [0][5]: E0041000 CID B105900D PID 101BB924 ETM-M3
T29B0 000:274.412 - 172.825ms returns 0x1BA01477
T29B0 000:274.442 JLINK_GetDLLVersion()
T29B0 000:274.452 - 0.013ms returns 75804
T29B0 000:274.465 JLINK_CORE_GetFound()
T29B0 000:274.473 - 0.013ms returns 0x30000FF
T29B0 000:274.486 JLINK_GetDebugInfo(0x100 = JLINKARM_ROM_TABLE_ADDR_INDEX)
T29B0 000:274.497   Value=0xE00FF000
T29B0 000:274.510 - 0.028ms returns 0
T29B0 000:276.927 JLINK_GetDebugInfo(0x100 = JLINKARM_ROM_TABLE_ADDR_INDEX)
T29B0 000:276.953   Value=0xE00FF000
T29B0 000:276.965 - 0.043ms returns 0
T29B0 000:276.977 JLINK_GetDebugInfo(0x101 = JLINKARM_DEBUG_INFO_ETM_ADDR_INDEX)
T29B0 000:276.986   Value=0xE0041000
T29B0 000:276.998 - 0.025ms returns 0
T29B0 000:277.009 JLINK_ReadMemEx(0xE0041FD0, 0x20 Bytes, Flags = 0x02000004)
T29B0 000:277.043   CPU_ReadMem(32 bytes @ 0xE0041FD0)
T29B0 000:277.482   Data:  04 00 00 00 00 00 00 00 00 00 00 00 00 00 00 00 ...
T29B0 000:277.504 - 0.500ms returns 32 (0x20)
T29B0 000:277.518 JLINK_GetDebugInfo(0x102 = JLINKARM_DEBUG_INFO_MTB_ADDR_INDEX)
T29B0 000:277.527   Value=0x00000000
T29B0 000:277.540 - 0.025ms returns 0
T29B0 000:277.550 JLINK_GetDebugInfo(0x103 = JLINKARM_DEBUG_INFO_TPIU_ADDR_INDEX)
T29B0 000:277.559   Value=0xE0040000
T29B0 000:277.571 - 0.024ms returns 0
T29B0 000:277.581 JLINK_GetDebugInfo(0x104 = JLINKARM_DEBUG_INFO_ITM_ADDR_INDEX)
T29B0 000:277.590   Value=0xE0000000
T29B0 000:277.602 - 0.024ms returns 0
T29B0 000:277.612 JLINK_GetDebugInfo(0x105 = JLINKARM_DEBUG_INFO_DWT_ADDR_INDEX)
T29B0 000:277.620   Value=0xE0001000
T29B0 000:277.632 - 0.024ms returns 0
T29B0 000:277.643 JLINK_GetDebugInfo(0x106 = JLINKARM_DEBUG_INFO_FPB_ADDR_INDEX)
T29B0 000:277.651   Value=0xE0002000
T29B0 000:277.663 - 0.024ms returns 0
T29B0 000:277.673 JLINK_GetDebugInfo(0x107 = JLINKARM_DEBUG_INFO_NVIC_ADDR_INDEX)
T29B0 000:277.682   Value=0xE000E000
T29B0 000:277.694 - 0.024ms returns 0
T29B0 000:277.704 JLINK_GetDebugInfo(0x10C = JLINKARM_DEBUG_INFO_DBG_ADDR_INDEX)
T29B0 000:277.713   Value=0xE000EDF0
T29B0 000:277.725 - 0.024ms returns 0
T29B0 000:277.735 JLINK_GetDebugInfo(0x01 = Unknown)
T29B0 000:277.743   Value=0x00000000
T29B0 000:277.755 - 0.024ms returns 0
T29B0 000:277.766 JLINK_ReadMemU32(0xE000ED00, 0x1 Items)
T29B0 000:277.781   CPU_ReadMem(4 bytes @ 0xE000ED00)
T29B0 000:278.114   Data:  31 C2 1F 41
T29B0 000:278.133   Debug reg: CPUID
T29B0 000:278.146 - 0.384ms returns 1 (0x1)
T29B0 000:278.160 JLINK_GetDebugInfo(0x10F = JLINKARM_DEBUG_INFO_HAS_CORTEX_M_SECURITY_EXT_INDEX)
T29B0 000:278.169   Value=0x00000000
T29B0 000:278.182 - 0.026ms returns 0
T29B0 000:278.193 JLINK_HasError()
T29B0 000:278.204 JLINK_SetResetType(JLINKARM_CM3_RESET_TYPE_RESETPIN)
T29B0 000:278.213 - 0.013ms returns JLINKARM_CM3_RESET_TYPE_NORMAL
T29B0 000:278.224 JLINK_Reset()
T29B0 000:278.247   CPU is running
T29B0 000:278.261   CPU_WriteMem(4 bytes @ 0xE000EDF0)
T29B0 000:278.623   CPU is running
T29B0 000:278.649   CPU_WriteMem(4 bytes @ 0xE000EDFC)
T29B0 000:281.543   Reset: Halt core after reset via DEMCR.VC_CORERESET.
T29B0 000:283.795   Reset: Reset device via reset pin
T29B0 000:407.889   CPU_WriteMem(4 bytes @ 0xE000EDFC)
T29B0 000:413.589   CPU_ReadMem(4 bytes @ 0xE000EDF0)
T29B0 000:413.998   CPU_WriteMem(4 bytes @ 0xE0002000)
T29B0 000:414.337   CPU_ReadMem(4 bytes @ 0xE000EDFC)
T29B0 000:414.640   CPU_ReadMem(4 bytes @ 0xE0001000)
T29B0 000:415.000 - 136.789ms
T29B0 000:415.031 JLINK_Halt()
T29B0 000:415.043 - 0.017ms returns 0x00
T29B0 000:415.057 JLINK_ReadMemU32(0xE000EDF0, 0x1 Items)
T29B0 000:415.078   CPU_ReadMem(4 bytes @ 0xE000EDF0)
T29B0 000:415.406   Data:  03 00 03 00
T29B0 000:415.430   Debug reg: DHCSR
T29B0 000:415.446 - 0.394ms returns 1 (0x1)
T29B0 000:415.471 JLINK_WriteU32_64(0xE000EDF0, 0xA05F0003)
T29B0 000:415.483   Debug reg: DHCSR
T29B0 000:415.842   CPU_WriteMem(4 bytes @ 0xE000EDF0)
T29B0 000:416.174 - 0.714ms returns 0 (0x00000000)
T29B0 000:416.200 JLINK_WriteU32_64(0xE000EDFC, 0x01000000)
T29B0 000:416.213   Debug reg: DEMCR
T29B0 000:416.237   CPU_WriteMem(4 bytes @ 0xE000EDFC)
T29B0 000:416.539 - 0.350ms returns 0 (0x00000000)
T29B0 000:427.991 JLINK_GetHWStatus(...)
T29B0 000:428.305 - 0.328ms returns 0
T29B0 000:436.638 JLINK_GetNumBPUnits(Type = 0xFFFFFF00)
T29B0 000:436.671 - 0.038ms returns 0x06
T29B0 000:436.686 JLINK_GetNumBPUnits(Type = 0xF0)
T29B0 000:436.697 - 0.016ms returns 0x2000
T29B0 000:436.710 JLINK_GetNumWPUnits()
T29B0 000:436.720 - 0.015ms returns 4
T29B0 000:445.025 JLINK_GetSpeed()
T29B0 000:445.053 - 0.033ms returns 12000
T29B0 000:449.547 JLINK_ReadMemU32(0xE000E004, 0x1 Items)
T29B0 000:449.585   CPU_ReadMem(4 bytes @ 0xE000E004)
T29B0 000:449.930   Data:  01 00 00 00
T29B0 000:449.951 - 0.408ms returns 1 (0x1)
T29B0 000:449.965 JLINK_ReadMemU32(0xE000E004, 0x1 Items)
T29B0 000:449.980   CPU_ReadMem(4 bytes @ 0xE000E004)
T29B0 000:450.302   Data:  01 00 00 00
T29B0 000:450.321 - 0.360ms returns 1 (0x1)
T29B0 000:450.335 JLINK_WriteMemEx(0xE0001000, 0x0000001C Bytes, Flags = 0x02000004)
T29B0 000:450.345   Data:  01 00 00 00 00 00 00 00 00 00 00 00 00 00 00 00 ...
T29B0 000:450.368   CPU_WriteMem(28 bytes @ 0xE0001000)
T29B0 000:450.776 - 0.453ms returns 0x1C
T29B0 000:450.801 JLINK_Halt()
T29B0 000:450.810 - 0.013ms returns 0x00
T29B0 000:450.821 JLINK_IsHalted()
T29B0 000:450.831 - 0.014ms returns TRUE
T29B0 000:453.531 JLINK_WriteMem(0x20000000, 0x164 Bytes, ...)
T29B0 000:453.549   Data:  00 BE 0A E0 0D 78 2D 06 68 40 08 24 40 00 00 D3 ...
T29B0 000:453.837   CPU_WriteMem(356 bytes @ 0x20000000)
T29B0 000:455.165 - 1.656ms returns 0x164
T29B0 000:455.233 JLINK_HasError()
T29B0 000:455.248 JLINK_WriteReg(R0, 0x08000000)
T29B0 000:455.263 - 0.019ms returns 0
T29B0 000:455.274 JLINK_WriteReg(R1, 0x00F42400)
T29B0 000:455.284 - 0.014ms returns 0
T29B0 000:455.295 JLINK_WriteReg(R2, 0x00000001)
T29B0 000:455.304 - 0.013ms returns 0
T29B0 000:455.315 JLINK_WriteReg(R3, 0x00000000)
T29B0 000:455.324 - 0.013ms returns 0
T29B0 000:455.335 JLINK_WriteReg(R4, 0x00000000)
T29B0 000:455.344 - 0.013ms returns 0
T29B0 000:455.354 JLINK_WriteReg(R5, 0x00000000)
T29B0 000:455.364 - 0.013ms returns 0
T29B0 000:455.374 JLINK_WriteReg(R6, 0x00000000)
T29B0 000:455.384 - 0.013ms returns 0
T29B0 000:455.394 JLINK_WriteReg(R7, 0x00000000)
T29B0 000:455.403 - 0.013ms returns 0
T29B0 000:455.414 JLINK_WriteReg(R8, 0x00000000)
T29B0 000:455.433 - 0.023ms returns 0
T29B0 000:455.444 JLINK_WriteReg(R9, 0x20000160)
T29B0 000:455.453 - 0.013ms returns 0
T29B0 000:455.464 JLINK_WriteReg(R10, 0x00000000)
T29B0 000:455.473 - 0.013ms returns 0
T29B0 000:455.483 JLINK_WriteReg(R11, 0x00000000)
T29B0 000:455.492 - 0.013ms returns 0
T29B0 000:455.503 JLINK_WriteReg(R12, 0x00000000)
T29B0 000:455.512 - 0.013ms returns 0
T29B0 000:455.522 JLINK_WriteReg(R13 (SP), 0x20001000)
T29B0 000:455.532 - 0.014ms returns 0
T29B0 000:455.543 JLINK_WriteReg(R14, 0x20000001)
T29B0 000:455.552 - 0.017ms returns 0
T29B0 000:455.569 JLINK_WriteReg(R15 (PC), 0x20000038)
T29B0 000:455.578 - 0.013ms returns 0
T29B0 000:455.589 JLINK_WriteReg(XPSR, 0x01000000)
T29B0 000:455.598 - 0.013ms returns 0
T29B0 000:455.608 JLINK_WriteReg(MSP, 0x20001000)
T29B0 000:455.617 - 0.013ms returns 0
T29B0 000:455.628 JLINK_WriteReg(PSP, 0x20001000)
T29B0 000:455.637 - 0.013ms returns 0
T29B0 000:455.647 JLINK_WriteReg(CFBP, 0x00000000)
T29B0 000:455.656 - 0.013ms returns 0
T29B0 000:455.667 JLINK_SetBPEx(Addr = 0x20000000, Type = 0xFFFFFFF2)
T29B0 000:455.685   CPU_ReadMem(2 bytes @ 0x20000000)
T29B0 000:456.037 - 0.382ms returns 0x00000001
T29B0 000:456.058 JLINK_Go()
T29B0 000:456.072   CPU_WriteMem(2 bytes @ 0x20000000)
T29B0 000:456.407   CPU_ReadMem(4 bytes @ 0xE0001000)
T29B0 000:456.701   CPU_WriteMem(4 bytes @ 0xE0002008)
T29B0 000:456.721   CPU_WriteMem(4 bytes @ 0xE000200C)
T29B0 000:456.735   CPU_WriteMem(4 bytes @ 0xE0002010)
T29B0 000:456.753   CPU_WriteMem(4 bytes @ 0xE0002014)
T29B0 000:456.767   CPU_WriteMem(4 bytes @ 0xE0002018)
T29B0 000:456.780   CPU_WriteMem(4 bytes @ 0xE000201C)
T29B0 000:457.690   CPU_WriteMem(4 bytes @ 0xE0001004)
T29B0 000:459.840 - 3.791ms
T29B0 000:459.860 JLINK_IsHalted()
T29B0 000:461.592   CPU_ReadMem(2 bytes @ 0x20000000)
T29B0 000:461.881 - 2.030ms returns TRUE
T29B0 000:461.899 JLINK_ReadReg(R15 (PC))
T29B0 000:461.910 - 0.016ms returns 0x20000000
T29B0 000:461.922 JLINK_ClrBPEx(BPHandle = 0x00000001)
T29B0 000:461.932 - 0.014ms returns 0x00
T29B0 000:461.943 JLINK_ReadReg(R0)
T29B0 000:461.952 - 0.013ms returns 0x00000000
T29B0 000:462.330 JLINK_HasError()
T29B0 000:462.347 JLINK_WriteReg(R0, 0x08000000)
T29B0 000:462.358 - 0.015ms returns 0
T29B0 000:462.369 JLINK_WriteReg(R1, 0x00F42400)
T29B0 000:462.378 - 0.013ms returns 0
T29B0 000:462.388 JLINK_WriteReg(R2, 0x00000001)
T29B0 000:462.397 - 0.013ms returns 0
T29B0 000:462.408 JLINK_WriteReg(R3, 0x00000000)
T29B0 000:462.417 - 0.013ms returns 0
T29B0 000:462.427 JLINK_WriteReg(R4, 0x00000000)
T29B0 000:462.436 - 0.013ms returns 0
T29B0 000:462.447 JLINK_WriteReg(R5, 0x00000000)
T29B0 000:462.455 - 0.013ms returns 0
T29B0 000:462.466 JLINK_WriteReg(R6, 0x00000000)
T29B0 000:462.475 - 0.013ms returns 0
T29B0 000:462.485 JLINK_WriteReg(R7, 0x00000000)
T29B0 000:462.494 - 0.013ms returns 0
T29B0 000:462.505 JLINK_WriteReg(R8, 0x00000000)
T29B0 000:462.514 - 0.013ms returns 0
T29B0 000:462.524 JLINK_WriteReg(R9, 0x20000160)
T29B0 000:462.533 - 0.013ms returns 0
T29B0 000:462.543 JLINK_WriteReg(R10, 0x00000000)
T29B0 000:462.552 - 0.013ms returns 0
T29B0 000:462.563 JLINK_WriteReg(R11, 0x00000000)
T29B0 000:462.572 - 0.013ms returns 0
T29B0 000:462.582 JLINK_WriteReg(R12, 0x00000000)
T29B0 000:462.591 - 0.013ms returns 0
T29B0 000:462.602 JLINK_WriteReg(R13 (SP), 0x20001000)
T29B0 000:462.611 - 0.013ms returns 0
T29B0 000:462.621 JLINK_WriteReg(R14, 0x20000001)
T29B0 000:462.630 - 0.013ms returns 0
T29B0 000:462.641 JLINK_WriteReg(R15 (PC), 0x2000007C)
T29B0 000:462.650 - 0.013ms returns 0
T29B0 000:462.660 JLINK_WriteReg(XPSR, 0x01000000)
T29B0 000:462.669 - 0.013ms returns 0
T29B0 000:462.680 JLINK_WriteReg(MSP, 0x20001000)
T29B0 000:462.689 - 0.013ms returns 0
T29B0 000:462.699 JLINK_WriteReg(PSP, 0x20001000)
T29B0 000:462.708 - 0.013ms returns 0
T29B0 000:462.719 JLINK_WriteReg(CFBP, 0x00000000)
T29B0 000:462.728 - 0.013ms returns 0
T29B0 000:462.738 JLINK_SetBPEx(Addr = 0x20000000, Type = 0xFFFFFFF2)
T29B0 000:462.748 - 0.014ms returns 0x00000002
T29B0 000:462.759 JLINK_Go()
T29B0 000:462.775   CPU_ReadMem(4 bytes @ 0xE0001000)
T29B0 000:464.452 - 1.707ms
T29B0 000:464.476 JLINK_IsHalted()
T29B0 000:464.706 - 0.237ms returns FALSE
T29B0 000:464.723 JLINK_HasError()
T29B0 000:479.047 JLINK_IsHalted()
T29B0 000:479.402 - 0.371ms returns FALSE
T29B0 000:479.431 JLINK_HasError()
T29B0 000:481.029 JLINK_IsHalted()
T29B0 000:481.390 - 0.377ms returns FALSE
T29B0 000:481.418 JLINK_HasError()
T29B0 000:483.025 JLINK_IsHalted()
T29B0 000:483.379 - 0.370ms returns FALSE
T29B0 000:483.461 JLINK_HasError()
T29B0 000:485.655 JLINK_IsHalted()
T29B0 000:486.012 - 0.374ms returns FALSE
T29B0 000:486.043 JLINK_HasError()
T29B0 000:487.282 JLINK_IsHalted()
T29B0 000:489.141   CPU_ReadMem(2 bytes @ 0x20000000)
T29B0 000:489.502 - 2.236ms returns TRUE
T29B0 000:489.531 JLINK_ReadReg(R15 (PC))
T29B0 000:489.546 - 0.020ms returns 0x20000000
T29B0 000:489.558 JLINK_ClrBPEx(BPHandle = 0x00000002)
T29B0 000:489.569 - 0.014ms returns 0x00
T29B0 000:489.580 JLINK_ReadReg(R0)
T29B0 000:489.590 - 0.014ms returns 0x00000000
T29B0 000:541.807 JLINK_HasError()
T29B0 000:541.846 JLINK_WriteReg(R0, 0x00000001)
T29B0 000:541.863 - 0.023ms returns 0
T29B0 000:541.877 JLINK_WriteReg(R1, 0x00F42400)
T29B0 000:541.889 - 0.016ms returns 0
T29B0 000:541.902 JLINK_WriteReg(R2, 0x00000001)
T29B0 000:541.913 - 0.016ms returns 0
T29B0 000:541.926 JLINK_WriteReg(R3, 0x00000000)
T29B0 000:541.937 - 0.016ms returns 0
T29B0 000:541.950 JLINK_WriteReg(R4, 0x00000000)
T29B0 000:541.961 - 0.016ms returns 0
T29B0 000:541.974 JLINK_WriteReg(R5, 0x00000000)
T29B0 000:541.985 - 0.016ms returns 0
T29B0 000:541.998 JLINK_WriteReg(R6, 0x00000000)
T29B0 000:542.010 - 0.016ms returns 0
T29B0 000:542.022 JLINK_WriteReg(R7, 0x00000000)
T29B0 000:542.033 - 0.016ms returns 0
T29B0 000:542.046 JLINK_WriteReg(R8, 0x00000000)
T29B0 000:542.057 - 0.016ms returns 0
T29B0 000:542.070 JLINK_WriteReg(R9, 0x20000160)
T29B0 000:542.081 - 0.016ms returns 0
T29B0 000:542.094 JLINK_WriteReg(R10, 0x00000000)
T29B0 000:542.105 - 0.016ms returns 0
T29B0 000:542.118 JLINK_WriteReg(R11, 0x00000000)
T29B0 000:542.129 - 0.016ms returns 0
T29B0 000:542.142 JLINK_WriteReg(R12, 0x00000000)
T29B0 000:542.153 - 0.016ms returns 0
T29B0 000:542.166 JLINK_WriteReg(R13 (SP), 0x20001000)
T29B0 000:542.178 - 0.017ms returns 0
T29B0 000:542.192 JLINK_WriteReg(R14, 0x20000001)
T29B0 000:542.203 - 0.016ms returns 0
T29B0 000:542.216 JLINK_WriteReg(R15 (PC), 0x2000006A)
T29B0 000:542.227 - 0.016ms returns 0
T29B0 000:542.240 JLINK_WriteReg(XPSR, 0x01000000)
T29B0 000:542.251 - 0.016ms returns 0
T29B0 000:542.264 JLINK_WriteReg(MSP, 0x20001000)
T29B0 000:542.275 - 0.016ms returns 0
T29B0 000:542.288 JLINK_WriteReg(PSP, 0x20001000)
T29B0 000:542.299 - 0.016ms returns 0
T29B0 000:542.312 JLINK_WriteReg(CFBP, 0x00000000)
T29B0 000:542.323 - 0.016ms returns 0
T29B0 000:542.336 JLINK_SetBPEx(Addr = 0x20000000, Type = 0xFFFFFFF2)
T29B0 000:542.349 - 0.018ms returns 0x00000003
T29B0 000:542.363 JLINK_Go()
T29B0 000:542.386   CPU_ReadMem(4 bytes @ 0xE0001000)
T29B0 000:544.198 - 1.860ms
T29B0 000:544.238 JLINK_IsHalted()
T29B0 000:546.229   CPU_ReadMem(2 bytes @ 0x20000000)
T29B0 000:546.610 - 2.390ms returns TRUE
T29B0 000:546.648 JLINK_ReadReg(R15 (PC))
T29B0 000:546.666 - 0.024ms returns 0x20000000
T29B0 000:546.681 JLINK_ClrBPEx(BPHandle = 0x00000003)
T29B0 000:546.693 - 0.018ms returns 0x00
T29B0 000:546.709 JLINK_ReadReg(R0)
T29B0 000:546.722 - 0.018ms returns 0x00000000
T29B0 000:552.492 JLINK_WriteMem(0x20000000, 0x164 Bytes, ...)
T29B0 000:552.515   Data:  00 BE 0A E0 0D 78 2D 06 68 40 08 24 40 00 00 D3 ...
T29B0 000:552.547   CPU_WriteMem(356 bytes @ 0x20000000)
T29B0 000:553.815 - 1.356ms returns 0x164
T29B0 000:553.950 JLINK_HasError()
T29B0 000:553.987 JLINK_WriteReg(R0, 0x08000000)
T29B0 000:554.005 - 0.025ms returns 0
T29B0 000:554.029 JLINK_WriteReg(R1, 0x00F42400)
T29B0 000:554.081 - 0.060ms returns 0
T29B0 000:554.101 JLINK_WriteReg(R2, 0x00000002)
T29B0 000:554.119 - 0.025ms returns 0
T29B0 000:554.137 JLINK_WriteReg(R3, 0x00000000)
T29B0 000:554.153 - 0.023ms returns 0
T29B0 000:554.174 JLINK_WriteReg(R4, 0x00000000)
T29B0 000:554.203 - 0.035ms returns 0
T29B0 000:554.218 JLINK_WriteReg(R5, 0x00000000)
T29B0 000:554.231 - 0.018ms returns 0
T29B0 000:554.245 JLINK_WriteReg(R6, 0x00000000)
T29B0 000:554.258 - 0.021ms returns 0
T29B0 000:554.276 JLINK_WriteReg(R7, 0x00000000)
T29B0 000:554.358 - 0.088ms returns 0
T29B0 000:554.372 JLINK_WriteReg(R8, 0x00000000)
T29B0 000:554.443 - 0.081ms returns 0
T29B0 000:554.462 JLINK_WriteReg(R9, 0x20000160)
T29B0 000:554.473 - 0.016ms returns 0
T29B0 000:554.486 JLINK_WriteReg(R10, 0x00000000)
T29B0 000:554.498 - 0.016ms returns 0
T29B0 000:554.510 JLINK_WriteReg(R11, 0x00000000)
T29B0 000:554.522 - 0.016ms returns 0
T29B0 000:554.535 JLINK_WriteReg(R12, 0x00000000)
T29B0 000:554.546 - 0.016ms returns 0
T29B0 000:554.559 JLINK_WriteReg(R13 (SP), 0x20001000)
T29B0 000:554.572 - 0.019ms returns 0
T29B0 000:554.587 JLINK_WriteReg(R14, 0x20000001)
T29B0 000:554.598 - 0.016ms returns 0
T29B0 000:554.611 JLINK_WriteReg(R15 (PC), 0x20000038)
T29B0 000:554.623 - 0.016ms returns 0
T29B0 000:554.636 JLINK_WriteReg(XPSR, 0x01000000)
T29B0 000:554.647 - 0.016ms returns 0
T29B0 000:554.660 JLINK_WriteReg(MSP, 0x20001000)
T29B0 000:554.671 - 0.016ms returns 0
T29B0 000:554.684 JLINK_WriteReg(PSP, 0x20001000)
T29B0 000:554.695 - 0.016ms returns 0
T29B0 000:554.708 JLINK_WriteReg(CFBP, 0x00000000)
T29B0 000:554.719 - 0.016ms returns 0
T29B0 000:554.733 JLINK_SetBPEx(Addr = 0x20000000, Type = 0xFFFFFFF2)
T29B0 000:554.755   CPU_ReadMem(2 bytes @ 0x20000000)
T29B0 000:555.104 - 0.385ms returns 0x00000004
T29B0 000:555.130 JLINK_Go()
T29B0 000:555.147   CPU_WriteMem(2 bytes @ 0x20000000)
T29B0 000:555.485   CPU_ReadMem(4 bytes @ 0xE0001000)
T29B0 000:557.834 - 2.727ms
T29B0 000:557.873 JLINK_IsHalted()
T29B0 000:559.582   CPU_ReadMem(2 bytes @ 0x20000000)
T29B0 000:559.932 - 2.073ms returns TRUE
T29B0 000:559.960 JLINK_ReadReg(R15 (PC))
T29B0 000:559.977 - 0.023ms returns 0x20000000
T29B0 000:559.992 JLINK_ClrBPEx(BPHandle = 0x00000004)
T29B0 000:560.005 - 0.018ms returns 0x00
T29B0 000:560.019 JLINK_ReadReg(R0)
T29B0 000:560.031 - 0.017ms returns 0x00000000
T29B0 000:560.478 JLINK_WriteMem(0x20000164, 0x29C Bytes, ...)
T29B0 000:560.505   Data:  50 5E 00 20 25 02 00 08 63 4F 00 08 35 41 00 08 ...
T29B0 000:560.541   CPU_WriteMem(668 bytes @ 0x20000164)
T29B0 000:562.630 - 2.171ms returns 0x29C
T29B0 000:562.662 JLINK_WriteMem(0x20000400, 0x164 Bytes, ...)
T29B0 000:562.675   Data:  08 01 88 42 3C BF 50 68 58 60 07 D3 51 68 10 19 ...
T29B0 000:562.701   CPU_WriteMem(356 bytes @ 0x20000400)
T29B0 000:563.848 - 1.206ms returns 0x164
T29B0 000:563.882 JLINK_HasError()
T29B0 000:563.900 JLINK_WriteReg(R0, 0x08000000)
T29B0 000:563.938 - 0.046ms returns 0
T29B0 000:563.957 JLINK_WriteReg(R1, 0x00000400)
T29B0 000:563.972 - 0.020ms returns 0
T29B0 000:563.988 JLINK_WriteReg(R2, 0x20000164)
T29B0 000:564.000 - 0.017ms returns 0
T29B0 000:564.018 JLINK_WriteReg(R3, 0x00000000)
T29B0 000:564.033 - 0.023ms returns 0
T29B0 000:564.052 JLINK_WriteReg(R4, 0x00000000)
T29B0 000:564.064 - 0.018ms returns 0
T29B0 000:564.079 JLINK_WriteReg(R5, 0x00000000)
T29B0 000:564.091 - 0.017ms returns 0
T29B0 000:564.105 JLINK_WriteReg(R6, 0x00000000)
T29B0 000:564.116 - 0.016ms returns 0
T29B0 000:564.129 JLINK_WriteReg(R7, 0x00000000)
T29B0 000:564.141 - 0.016ms returns 0
T29B0 000:564.154 JLINK_WriteReg(R8, 0x00000000)
T29B0 000:564.165 - 0.016ms returns 0
T29B0 000:564.178 JLINK_WriteReg(R9, 0x20000160)
T29B0 000:564.190 - 0.016ms returns 0
T29B0 000:564.203 JLINK_WriteReg(R10, 0x00000000)
T29B0 000:564.214 - 0.016ms returns 0
T29B0 000:564.228 JLINK_WriteReg(R11, 0x00000000)
T29B0 000:564.240 - 0.018ms returns 0
T29B0 000:564.254 JLINK_WriteReg(R12, 0x00000000)
T29B0 000:564.266 - 0.017ms returns 0
T29B0 000:564.280 JLINK_WriteReg(R13 (SP), 0x20001000)
T29B0 000:564.292 - 0.018ms returns 0
T29B0 000:564.306 JLINK_WriteReg(R14, 0x20000001)
T29B0 000:564.318 - 0.017ms returns 0
T29B0 000:564.331 JLINK_WriteReg(R15 (PC), 0x200000F4)
T29B0 000:564.344 - 0.018ms returns 0
T29B0 000:564.357 JLINK_WriteReg(XPSR, 0x01000000)
T29B0 000:564.369 - 0.016ms returns 0
T29B0 000:564.382 JLINK_WriteReg(MSP, 0x20001000)
T29B0 000:564.399 - 0.037ms returns 0
T29B0 000:564.444 JLINK_WriteReg(PSP, 0x20001000)
T29B0 000:564.463 - 0.025ms returns 0
T29B0 000:564.478 JLINK_WriteReg(CFBP, 0x00000000)
T29B0 000:564.489 - 0.084ms returns 0
T29B0 000:564.579 JLINK_SetBPEx(Addr = 0x20000000, Type = 0xFFFFFFF2)
T29B0 000:564.595 - 0.022ms returns 0x00000005
T29B0 000:564.609 JLINK_Go()
T29B0 000:564.633   CPU_ReadMem(4 bytes @ 0xE0001000)
T29B0 000:566.683 - 2.090ms
T29B0 000:566.713 JLINK_IsHalted()
T29B0 000:566.981 - 0.278ms returns FALSE
T29B0 000:567.002 JLINK_HasError()
T29B0 000:572.923 JLINK_IsHalted()
T29B0 000:573.270 - 0.358ms returns FALSE
T29B0 000:573.294 JLINK_HasError()
T29B0 000:575.571 JLINK_IsHalted()
T29B0 000:575.938 - 0.386ms returns FALSE
T29B0 000:575.972 JLINK_HasError()
T29B0 000:577.615 JLINK_IsHalted()
T29B0 000:577.941 - 0.345ms returns FALSE
T29B0 000:577.975 JLINK_HasError()
T29B0 000:579.360 JLINK_IsHalted()
T29B0 000:579.736 - 0.395ms returns FALSE
T29B0 000:579.770 JLINK_HasError()
T29B0 000:581.176 JLINK_IsHalted()
T29B0 000:581.550 - 0.393ms returns FALSE
T29B0 000:581.584 JLINK_HasError()
T29B0 000:582.813 JLINK_IsHalted()
T29B0 000:583.189 - 0.394ms returns FALSE
T29B0 000:583.223 JLINK_HasError()
T29B0 000:584.775 JLINK_IsHalted()
T29B0 000:585.094 - 0.341ms returns FALSE
T29B0 000:585.132 JLINK_HasError()
T29B0 000:586.869 JLINK_IsHalted()
T29B0 000:587.276 - 0.433ms returns FALSE
T29B0 000:587.318 JLINK_HasError()
T29B0 000:588.742 JLINK_IsHalted()
T29B0 000:589.109 - 0.385ms returns FALSE
T29B0 000:589.142 JLINK_HasError()
T29B0 000:590.847 JLINK_IsHalted()
T29B0 000:591.206 - 0.378ms returns FALSE
T29B0 000:591.240 JLINK_HasError()
T29B0 000:592.634 JLINK_IsHalted()
T29B0 000:593.010 - 0.394ms returns FALSE
T29B0 000:593.044 JLINK_HasError()
T29B0 000:594.375 JLINK_IsHalted()
T29B0 000:594.740 - 0.388ms returns FALSE
T29B0 000:594.779 JLINK_HasError()
T29B0 000:596.635 JLINK_IsHalted()
T29B0 000:597.007 - 0.390ms returns FALSE
T29B0 000:597.041 JLINK_HasError()
T29B0 000:598.613 JLINK_IsHalted()
T29B0 000:600.737   CPU_ReadMem(2 bytes @ 0x20000000)
T29B0 000:601.114 - 2.520ms returns TRUE
T29B0 000:601.148 JLINK_ReadReg(R15 (PC))
T29B0 000:601.165 - 0.024ms returns 0x20000000
T29B0 000:601.181 JLINK_ClrBPEx(BPHandle = 0x00000005)
T29B0 000:601.193 - 0.018ms returns 0x00
T29B0 000:601.207 JLINK_ReadReg(R0)
T29B0 000:601.219 - 0.017ms returns 0x00000000
T29B0 000:601.963 JLINK_WriteMem(0x20000164, 0x29C Bytes, ...)
T29B0 000:601.990   Data:  28 6A 18 44 28 62 28 46 FF F7 AA FF 04 E0 D5 E9 ...
T29B0 000:602.021   CPU_WriteMem(668 bytes @ 0x20000164)
T29B0 000:603.831 - 1.917ms returns 0x29C
T29B0 000:603.904 JLINK_WriteMem(0x20000400, 0x164 Bytes, ...)
T29B0 000:603.922   Data:  1D E0 D8 F8 18 00 00 EB 80 00 05 EB 40 00 30 38 ...
T29B0 000:603.965   CPU_WriteMem(356 bytes @ 0x20000400)
T29B0 000:605.564 - 1.684ms returns 0x164
T29B0 000:605.604 JLINK_HasError()
T29B0 000:605.620 JLINK_WriteReg(R0, 0x08000400)
T29B0 000:605.639 - 0.024ms returns 0
T29B0 000:605.653 JLINK_WriteReg(R1, 0x00000400)
T29B0 000:605.665 - 0.017ms returns 0
T29B0 000:605.679 JLINK_WriteReg(R2, 0x20000164)
T29B0 000:605.690 - 0.016ms returns 0
T29B0 000:605.703 JLINK_WriteReg(R3, 0x00000000)
T29B0 000:605.714 - 0.016ms returns 0
T29B0 000:605.727 JLINK_WriteReg(R4, 0x00000000)
T29B0 000:605.738 - 0.016ms returns 0
T29B0 000:605.751 JLINK_WriteReg(R5, 0x00000000)
T29B0 000:605.762 - 0.016ms returns 0
T29B0 000:605.775 JLINK_WriteReg(R6, 0x00000000)
T29B0 000:605.786 - 0.016ms returns 0
T29B0 000:605.799 JLINK_WriteReg(R7, 0x00000000)
T29B0 000:605.810 - 0.016ms returns 0
T29B0 000:605.823 JLINK_WriteReg(R8, 0x00000000)
T29B0 000:605.834 - 0.016ms returns 0
T29B0 000:605.847 JLINK_WriteReg(R9, 0x20000160)
T29B0 000:605.858 - 0.016ms returns 0
T29B0 000:605.871 JLINK_WriteReg(R10, 0x00000000)
T29B0 000:605.882 - 0.016ms returns 0
T29B0 000:605.896 JLINK_WriteReg(R11, 0x00000000)
T29B0 000:605.907 - 0.016ms returns 0
T29B0 000:605.919 JLINK_WriteReg(R12, 0x00000000)
T29B0 000:605.930 - 0.016ms returns 0
T29B0 000:605.943 JLINK_WriteReg(R13 (SP), 0x20001000)
T29B0 000:605.956 - 0.017ms returns 0
T29B0 000:605.969 JLINK_WriteReg(R14, 0x20000001)
T29B0 000:606.058 - 0.100ms returns 0
T29B0 000:606.080 JLINK_WriteReg(R15 (PC), 0x200000F4)
T29B0 000:606.092 - 0.017ms returns 0
T29B0 000:606.105 JLINK_WriteReg(XPSR, 0x01000000)
T29B0 000:606.116 - 0.016ms returns 0
T29B0 000:606.129 JLINK_WriteReg(MSP, 0x20001000)
T29B0 000:606.140 - 0.019ms returns 0
T29B0 000:606.156 JLINK_WriteReg(PSP, 0x20001000)
T29B0 000:606.167 - 0.016ms returns 0
T29B0 000:606.180 JLINK_WriteReg(CFBP, 0x00000000)
T29B0 000:606.191 - 0.016ms returns 0
T29B0 000:606.204 JLINK_SetBPEx(Addr = 0x20000000, Type = 0xFFFFFFF2)
T29B0 000:606.217 - 0.018ms returns 0x00000006
T29B0 000:606.231 JLINK_Go()
T29B0 000:606.254   CPU_ReadMem(4 bytes @ 0xE0001000)
T29B0 000:608.607 - 2.400ms
T29B0 000:608.646 JLINK_IsHalted()
T29B0 000:608.992 - 0.364ms returns FALSE
T29B0 000:609.024 JLINK_HasError()
T29B0 000:610.897 JLINK_IsHalted()
T29B0 000:611.267 - 0.388ms returns FALSE
T29B0 000:611.300 JLINK_HasError()
T29B0 000:612.701 JLINK_IsHalted()
T29B0 000:613.064 - 0.381ms returns FALSE
T29B0 000:613.097 JLINK_HasError()
T29B0 000:614.574 JLINK_IsHalted()
T29B0 000:614.885 - 0.335ms returns FALSE
T29B0 000:614.924 JLINK_HasError()
T29B0 000:616.688 JLINK_IsHalted()
T29B0 000:617.026 - 0.358ms returns FALSE
T29B0 000:617.061 JLINK_HasError()
T29B0 000:618.705 JLINK_IsHalted()
T29B0 000:619.083 - 0.397ms returns FALSE
T29B0 000:619.125 JLINK_HasError()
T29B0 000:620.701 JLINK_IsHalted()
T29B0 000:621.064 - 0.390ms returns FALSE
T29B0 000:621.110 JLINK_HasError()
T29B0 000:622.558 JLINK_IsHalted()
T29B0 000:622.906 - 0.367ms returns FALSE
T29B0 000:622.944 JLINK_HasError()
T29B0 000:624.282 JLINK_IsHalted()
T29B0 000:624.591 - 0.331ms returns FALSE
T29B0 000:624.628 JLINK_HasError()
T29B0 000:626.609 JLINK_IsHalted()
T29B0 000:626.982 - 0.391ms returns FALSE
T29B0 000:627.016 JLINK_HasError()
T29B0 000:628.399 JLINK_IsHalted()
T29B0 000:628.768 - 0.387ms returns FALSE
T29B0 000:628.802 JLINK_HasError()
T29B0 000:630.405 JLINK_IsHalted()
T29B0 000:630.780 - 0.394ms returns FALSE
T29B0 000:630.814 JLINK_HasError()
T29B0 000:632.404 JLINK_IsHalted()
T29B0 000:632.784 - 0.399ms returns FALSE
T29B0 000:632.818 JLINK_HasError()
T29B0 000:634.390 JLINK_IsHalted()
T29B0 000:634.702 - 0.335ms returns FALSE
T29B0 000:634.741 JLINK_HasError()
T29B0 000:636.372 JLINK_IsHalted()
T29B0 000:636.722 - 0.373ms returns FALSE
T29B0 000:636.760 JLINK_HasError()
T29B0 000:640.075 JLINK_IsHalted()
T29B0 000:642.122   CPU_ReadMem(2 bytes @ 0x20000000)
T29B0 000:642.500 - 2.461ms returns TRUE
T29B0 000:642.551 JLINK_ReadReg(R15 (PC))
T29B0 000:642.568 - 0.024ms returns 0x20000000
T29B0 000:642.583 JLINK_ClrBPEx(BPHandle = 0x00000006)
T29B0 000:642.595 - 0.017ms returns 0x00
T29B0 000:642.609 JLINK_ReadReg(R0)
T29B0 000:642.621 - 0.016ms returns 0x00000000
T29B0 000:643.364 JLINK_WriteMem(0x20000164, 0x29C Bytes, ...)
T29B0 000:643.391   Data:  81 07 FA D1 4F F0 01 32 02 C8 8C 1A 8C 43 14 EA ...
T29B0 000:643.422   CPU_WriteMem(668 bytes @ 0x20000164)
T29B0 000:645.650 - 2.309ms returns 0x29C
T29B0 000:645.689 JLINK_WriteMem(0x20000400, 0x164 Bytes, ...)
T29B0 000:645.702   Data:  00 20 0C 46 10 20 00 BF 06 46 A8 19 A0 42 0D D9 ...
T29B0 000:645.733   CPU_WriteMem(356 bytes @ 0x20000400)
T29B0 000:647.036 - 1.371ms returns 0x164
T29B0 000:647.076 JLINK_HasError()
T29B0 000:647.093 JLINK_WriteReg(R0, 0x08000800)
T29B0 000:647.111 - 0.025ms returns 0
T29B0 000:647.126 JLINK_WriteReg(R1, 0x00000400)
T29B0 000:647.138 - 0.017ms returns 0
T29B0 000:647.152 JLINK_WriteReg(R2, 0x20000164)
T29B0 000:647.163 - 0.017ms returns 0
T29B0 000:647.177 JLINK_WriteReg(R3, 0x00000000)
T29B0 000:647.188 - 0.017ms returns 0
T29B0 000:647.202 JLINK_WriteReg(R4, 0x00000000)
T29B0 000:647.213 - 0.017ms returns 0
T29B0 000:647.227 JLINK_WriteReg(R5, 0x00000000)
T29B0 000:647.238 - 0.016ms returns 0
T29B0 000:647.251 JLINK_WriteReg(R6, 0x00000000)
T29B0 000:647.263 - 0.017ms returns 0
T29B0 000:647.276 JLINK_WriteReg(R7, 0x00000000)
T29B0 000:647.287 - 0.017ms returns 0
T29B0 000:647.306 JLINK_WriteReg(R8, 0x00000000)
T29B0 000:647.322 - 0.021ms returns 0
T29B0 000:647.336 JLINK_WriteReg(R9, 0x20000160)
T29B0 000:647.347 - 0.017ms returns 0
T29B0 000:647.361 JLINK_WriteReg(R10, 0x00000000)
T29B0 000:647.372 - 0.017ms returns 0
T29B0 000:647.385 JLINK_WriteReg(R11, 0x00000000)
T29B0 000:647.397 - 0.017ms returns 0
T29B0 000:647.410 JLINK_WriteReg(R12, 0x00000000)
T29B0 000:647.422 - 0.017ms returns 0
T29B0 000:647.435 JLINK_WriteReg(R13 (SP), 0x20001000)
T29B0 000:647.448 - 0.018ms returns 0
T29B0 000:647.461 JLINK_WriteReg(R14, 0x20000001)
T29B0 000:647.473 - 0.017ms returns 0
T29B0 000:647.486 JLINK_WriteReg(R15 (PC), 0x200000F4)
T29B0 000:647.497 - 0.017ms returns 0
T29B0 000:647.511 JLINK_WriteReg(XPSR, 0x01000000)
T29B0 000:647.522 - 0.017ms returns 0
T29B0 000:647.536 JLINK_WriteReg(MSP, 0x20001000)
T29B0 000:647.547 - 0.017ms returns 0
T29B0 000:647.560 JLINK_WriteReg(PSP, 0x20001000)
T29B0 000:647.572 - 0.020ms returns 0
T29B0 000:647.590 JLINK_WriteReg(CFBP, 0x00000000)
T29B0 000:647.603 - 0.019ms returns 0
T29B0 000:647.622 JLINK_SetBPEx(Addr = 0x20000000, Type = 0xFFFFFFF2)
T29B0 000:647.636 - 0.020ms returns 0x00000007
T29B0 000:647.650 JLINK_Go()
T29B0 000:647.672   CPU_ReadMem(4 bytes @ 0xE0001000)
T29B0 000:649.825 - 2.199ms
T29B0 000:649.867 JLINK_IsHalted()
T29B0 000:650.183 - 0.333ms returns FALSE
T29B0 000:650.219 JLINK_HasError()
T29B0 000:651.602 JLINK_IsHalted()
T29B0 000:651.978 - 0.395ms returns FALSE
T29B0 000:652.012 JLINK_HasError()
T29B0 000:653.609 JLINK_IsHalted()
T29B0 000:653.980 - 0.397ms returns FALSE
T29B0 000:654.025 JLINK_HasError()
T29B0 000:655.478 JLINK_IsHalted()
T29B0 000:655.858 - 0.397ms returns FALSE
T29B0 000:655.891 JLINK_HasError()
T29B0 000:657.277 JLINK_IsHalted()
T29B0 000:657.706 - 0.449ms returns FALSE
T29B0 000:657.741 JLINK_HasError()
T29B0 000:659.296 JLINK_IsHalted()
T29B0 000:659.702 - 0.430ms returns FALSE
T29B0 000:659.743 JLINK_HasError()
T29B0 000:661.280 JLINK_IsHalted()
T29B0 000:661.704 - 0.441ms returns FALSE
T29B0 000:661.737 JLINK_HasError()
T29B0 000:663.292 JLINK_IsHalted()
T29B0 000:663.630 - 0.357ms returns FALSE
T29B0 000:663.665 JLINK_HasError()
T29B0 000:664.893 JLINK_IsHalted()
T29B0 000:665.267 - 0.396ms returns FALSE
T29B0 000:665.304 JLINK_HasError()
T29B0 000:666.684 JLINK_IsHalted()
T29B0 000:667.085 - 0.419ms returns FALSE
T29B0 000:667.120 JLINK_HasError()
T29B0 000:670.265 JLINK_IsHalted()
T29B0 000:670.713 - 0.468ms returns FALSE
T29B0 000:670.748 JLINK_HasError()
T29B0 000:672.120 JLINK_IsHalted()
T29B0 000:672.496 - 0.395ms returns FALSE
T29B0 000:672.529 JLINK_HasError()
T29B0 000:674.134 JLINK_IsHalted()
T29B0 000:674.458 - 0.349ms returns FALSE
T29B0 000:674.498 JLINK_HasError()
T29B0 000:676.114 JLINK_IsHalted()
T29B0 000:676.477 - 0.382ms returns FALSE
T29B0 000:676.515 JLINK_HasError()
T29B0 000:677.884 JLINK_IsHalted()
T29B0 000:678.263 - 0.397ms returns FALSE
T29B0 000:678.296 JLINK_HasError()
T29B0 000:679.916 JLINK_IsHalted()
T29B0 000:680.217 - 0.324ms returns FALSE
T29B0 000:680.257 JLINK_HasError()
T29B0 000:681.515 JLINK_IsHalted()
T29B0 000:683.372   CPU_ReadMem(2 bytes @ 0x20000000)
T29B0 000:683.747 - 2.251ms returns TRUE
T29B0 000:683.781 JLINK_ReadReg(R15 (PC))
T29B0 000:683.799 - 0.024ms returns 0x20000000
T29B0 000:683.813 JLINK_ClrBPEx(BPHandle = 0x00000007)
T29B0 000:683.826 - 0.018ms returns 0x00
T29B0 000:683.840 JLINK_ReadReg(R0)
T29B0 000:683.852 - 0.017ms returns 0x00000000
T29B0 000:684.617 JLINK_WriteMem(0x20000164, 0x29C Bytes, ...)
T29B0 000:684.645   Data:  10 BD 12 78 00 F1 24 01 0A 70 00 22 4A 70 01 22 ...
T29B0 000:684.677   CPU_WriteMem(668 bytes @ 0x20000164)
T29B0 000:686.530 - 1.938ms returns 0x29C
T29B0 000:686.570 JLINK_WriteMem(0x20000400, 0x164 Bytes, ...)
T29B0 000:686.583   Data:  00 F0 B3 FA E0 68 41 F2 82 01 4F F0 FF 39 01 40 ...
T29B0 000:686.613   CPU_WriteMem(356 bytes @ 0x20000400)
T29B0 000:688.130 - 1.584ms returns 0x164
T29B0 000:688.170 JLINK_HasError()
T29B0 000:688.191 JLINK_WriteReg(R0, 0x08000C00)
T29B0 000:688.214 - 0.028ms returns 0
T29B0 000:688.228 JLINK_WriteReg(R1, 0x00000400)
T29B0 000:688.240 - 0.017ms returns 0
T29B0 000:688.253 JLINK_WriteReg(R2, 0x20000164)
T29B0 000:688.264 - 0.016ms returns 0
T29B0 000:688.277 JLINK_WriteReg(R3, 0x00000000)
T29B0 000:688.288 - 0.016ms returns 0
T29B0 000:688.301 JLINK_WriteReg(R4, 0x00000000)
T29B0 000:688.313 - 0.016ms returns 0
T29B0 000:688.325 JLINK_WriteReg(R5, 0x00000000)
T29B0 000:688.337 - 0.016ms returns 0
T29B0 000:688.350 JLINK_WriteReg(R6, 0x00000000)
T29B0 000:688.361 - 0.016ms returns 0
T29B0 000:688.374 JLINK_WriteReg(R7, 0x00000000)
T29B0 000:688.385 - 0.016ms returns 0
T29B0 000:688.398 JLINK_WriteReg(R8, 0x00000000)
T29B0 000:688.409 - 0.016ms returns 0
T29B0 000:688.422 JLINK_WriteReg(R9, 0x20000160)
T29B0 000:688.433 - 0.016ms returns 0
T29B0 000:688.446 JLINK_WriteReg(R10, 0x00000000)
T29B0 000:688.457 - 0.016ms returns 0
T29B0 000:688.470 JLINK_WriteReg(R11, 0x00000000)
T29B0 000:688.481 - 0.016ms returns 0
T29B0 000:688.494 JLINK_WriteReg(R12, 0x00000000)
T29B0 000:688.505 - 0.016ms returns 0
T29B0 000:688.518 JLINK_WriteReg(R13 (SP), 0x20001000)
T29B0 000:688.530 - 0.017ms returns 0
T29B0 000:688.543 JLINK_WriteReg(R14, 0x20000001)
T29B0 000:688.554 - 0.016ms returns 0
T29B0 000:688.567 JLINK_WriteReg(R15 (PC), 0x200000F4)
T29B0 000:688.579 - 0.017ms returns 0
T29B0 000:688.592 JLINK_WriteReg(XPSR, 0x01000000)
T29B0 000:688.603 - 0.016ms returns 0
T29B0 000:688.616 JLINK_WriteReg(MSP, 0x20001000)
T29B0 000:688.627 - 0.016ms returns 0
T29B0 000:688.641 JLINK_WriteReg(PSP, 0x20001000)
T29B0 000:688.652 - 0.016ms returns 0
T29B0 000:688.665 JLINK_WriteReg(CFBP, 0x00000000)
T29B0 000:688.676 - 0.016ms returns 0
T29B0 000:688.689 JLINK_SetBPEx(Addr = 0x20000000, Type = 0xFFFFFFF2)
T29B0 000:688.702 - 0.018ms returns 0x00000008
T29B0 000:688.715 JLINK_Go()
T29B0 000:688.738   CPU_ReadMem(4 bytes @ 0xE0001000)
T29B0 000:690.908 - 2.216ms
T29B0 000:690.947 JLINK_IsHalted()
T29B0 000:691.309 - 0.381ms returns FALSE
T29B0 000:691.343 JLINK_HasError()
T29B0 000:692.483 JLINK_IsHalted()
T29B0 000:692.858 - 0.394ms returns FALSE
T29B0 000:692.892 JLINK_HasError()
T29B0 000:694.202 JLINK_IsHalted()
T29B0 000:694.548 - 0.369ms returns FALSE
T29B0 000:694.586 JLINK_HasError()
T29B0 000:696.452 JLINK_IsHalted()
T29B0 000:696.828 - 0.395ms returns FALSE
T29B0 000:696.862 JLINK_HasError()
T29B0 000:698.542 JLINK_IsHalted()
T29B0 000:698.909 - 0.385ms returns FALSE
T29B0 000:698.942 JLINK_HasError()
T29B0 000:700.326 JLINK_IsHalted()
T29B0 000:700.709 - 0.400ms returns FALSE
T29B0 000:700.741 JLINK_HasError()
T29B0 000:702.357 JLINK_IsHalted()
T29B0 000:702.741 - 0.402ms returns FALSE
T29B0 000:702.778 JLINK_HasError()
T29B0 000:703.947 JLINK_IsHalted()
T29B0 000:704.240 - 0.325ms returns FALSE
T29B0 000:704.295 JLINK_HasError()
T29B0 000:706.329 JLINK_IsHalted()
T29B0 000:706.704 - 0.393ms returns FALSE
T29B0 000:706.738 JLINK_HasError()
T29B0 000:708.333 JLINK_IsHalted()
T29B0 000:708.709 - 0.394ms returns FALSE
T29B0 000:708.742 JLINK_HasError()
T29B0 000:710.328 JLINK_IsHalted()
T29B0 000:710.710 - 0.401ms returns FALSE
T29B0 000:710.744 JLINK_HasError()
T29B0 000:712.724 JLINK_IsHalted()
T29B0 000:713.076 - 0.370ms returns FALSE
T29B0 000:713.109 JLINK_HasError()
T29B0 000:714.749 JLINK_IsHalted()
T29B0 000:715.068 - 0.341ms returns FALSE
T29B0 000:715.105 JLINK_HasError()
T29B0 000:717.085 JLINK_IsHalted()
T29B0 000:717.414 - 0.348ms returns FALSE
T29B0 000:717.448 JLINK_HasError()
T29B0 000:718.843 JLINK_IsHalted()
T29B0 000:719.217 - 0.393ms returns FALSE
T29B0 000:719.250 JLINK_HasError()
T29B0 000:720.523 JLINK_IsHalted()
T29B0 000:720.922 - 0.420ms returns FALSE
T29B0 000:720.958 JLINK_HasError()
T29B0 000:722.307 JLINK_IsHalted()
T29B0 000:724.341   CPU_ReadMem(2 bytes @ 0x20000000)
T29B0 000:724.673 - 2.388ms returns TRUE
T29B0 000:724.710 JLINK_ReadReg(R15 (PC))
T29B0 000:724.728 - 0.024ms returns 0x20000000
T29B0 000:724.761 JLINK_ClrBPEx(BPHandle = 0x00000008)
T29B0 000:724.780 - 0.024ms returns 0x00
T29B0 000:724.795 JLINK_ReadReg(R0)
T29B0 000:724.807 - 0.018ms returns 0x00000000
T29B0 000:725.566 JLINK_WriteMem(0x20000164, 0x29C Bytes, ...)
T29B0 000:725.594   Data:  E2 B1 81 42 00 D8 01 46 E5 62 0F 1A C4 E9 01 58 ...
T29B0 000:725.625   CPU_WriteMem(668 bytes @ 0x20000164)
T29B0 000:727.414 - 1.873ms returns 0x29C
T29B0 000:727.454 JLINK_WriteMem(0x20000400, 0x164 Bytes, ...)
T29B0 000:727.467   Data:  10 01 E1 60 05 DA 20 46 00 F0 58 F8 01 20 BD E8 ...
T29B0 000:727.498   CPU_WriteMem(356 bytes @ 0x20000400)
T29B0 000:728.749 - 1.319ms returns 0x164
T29B0 000:728.794 JLINK_HasError()
T29B0 000:728.811 JLINK_WriteReg(R0, 0x08001000)
T29B0 000:728.830 - 0.025ms returns 0
T29B0 000:728.848 JLINK_WriteReg(R1, 0x00000400)
T29B0 000:728.861 - 0.018ms returns 0
T29B0 000:728.876 JLINK_WriteReg(R2, 0x20000164)
T29B0 000:728.888 - 0.017ms returns 0
T29B0 000:728.902 JLINK_WriteReg(R3, 0x00000000)
T29B0 000:728.913 - 0.016ms returns 0
T29B0 000:728.926 JLINK_WriteReg(R4, 0x00000000)
T29B0 000:728.938 - 0.017ms returns 0
T29B0 000:728.954 JLINK_WriteReg(R5, 0x00000000)
T29B0 000:728.965 - 0.016ms returns 0
T29B0 000:728.979 JLINK_WriteReg(R6, 0x00000000)
T29B0 000:728.990 - 0.016ms returns 0
T29B0 000:729.003 JLINK_WriteReg(R7, 0x00000000)
T29B0 000:729.014 - 0.017ms returns 0
T29B0 000:729.029 JLINK_WriteReg(R8, 0x00000000)
T29B0 000:729.041 - 0.017ms returns 0
T29B0 000:729.055 JLINK_WriteReg(R9, 0x20000160)
T29B0 000:729.066 - 0.017ms returns 0
T29B0 000:729.169 JLINK_WriteReg(R10, 0x00000000)
T29B0 000:729.198 - 0.035ms returns 0
T29B0 000:729.214 JLINK_WriteReg(R11, 0x00000000)
T29B0 000:729.227 - 0.018ms returns 0
T29B0 000:729.241 JLINK_WriteReg(R12, 0x00000000)
T29B0 000:729.252 - 0.017ms returns 0
T29B0 000:729.266 JLINK_WriteReg(R13 (SP), 0x20001000)
T29B0 000:729.278 - 0.018ms returns 0
T29B0 000:729.292 JLINK_WriteReg(R14, 0x20000001)
T29B0 000:729.303 - 0.017ms returns 0
T29B0 000:729.321 JLINK_WriteReg(R15 (PC), 0x200000F4)
T29B0 000:729.333 - 0.018ms returns 0
T29B0 000:729.347 JLINK_WriteReg(XPSR, 0x01000000)
T29B0 000:729.358 - 0.017ms returns 0
T29B0 000:729.372 JLINK_WriteReg(MSP, 0x20001000)
T29B0 000:729.384 - 0.017ms returns 0
T29B0 000:729.397 JLINK_WriteReg(PSP, 0x20001000)
T29B0 000:729.409 - 0.017ms returns 0
T29B0 000:729.423 JLINK_WriteReg(CFBP, 0x00000000)
T29B0 000:729.434 - 0.017ms returns 0
T29B0 000:729.448 JLINK_SetBPEx(Addr = 0x20000000, Type = 0xFFFFFFF2)
T29B0 000:729.462 - 0.019ms returns 0x00000009
T29B0 000:729.476 JLINK_Go()
T29B0 000:729.500   CPU_ReadMem(4 bytes @ 0xE0001000)
T29B0 000:731.680 - 2.227ms
T29B0 000:731.718 JLINK_IsHalted()
T29B0 000:732.062 - 0.362ms returns FALSE
T29B0 000:732.095 JLINK_HasError()
T29B0 000:734.159 JLINK_IsHalted()
T29B0 000:734.472 - 0.336ms returns FALSE
T29B0 000:734.511 JLINK_HasError()
T29B0 000:736.481 JLINK_IsHalted()
T29B0 000:736.880 - 0.427ms returns FALSE
T29B0 000:736.926 JLINK_HasError()
T29B0 000:738.309 JLINK_IsHalted()
T29B0 000:738.801 - 0.504ms returns FALSE
T29B0 000:738.826 JLINK_HasError()
T29B0 000:741.235 JLINK_IsHalted()
T29B0 000:741.602 - 0.385ms returns FALSE
T29B0 000:741.635 JLINK_HasError()
T29B0 000:742.963 JLINK_IsHalted()
T29B0 000:743.302 - 0.357ms returns FALSE
T29B0 000:743.334 JLINK_HasError()
T29B0 000:745.964 JLINK_IsHalted()
T29B0 000:746.297 - 0.346ms returns FALSE
T29B0 000:746.322 JLINK_HasError()
T29B0 000:748.144 JLINK_IsHalted()
T29B0 000:748.466 - 0.333ms returns FALSE
T29B0 000:748.490 JLINK_HasError()
T29B0 000:750.352 JLINK_IsHalted()
T29B0 000:750.721 - 0.388ms returns FALSE
T29B0 000:750.755 JLINK_HasError()
T29B0 000:752.000 JLINK_IsHalted()
T29B0 000:752.351 - 0.370ms returns FALSE
T29B0 000:752.385 JLINK_HasError()
T29B0 000:754.164 JLINK_IsHalted()
T29B0 000:754.504 - 0.366ms returns FALSE
T29B0 000:754.551 JLINK_HasError()
T29B0 000:756.334 JLINK_IsHalted()
T29B0 000:756.687 - 0.365ms returns FALSE
T29B0 000:756.716 JLINK_HasError()
T29B0 000:757.877 JLINK_IsHalted()
T29B0 000:758.197 - 0.332ms returns FALSE
T29B0 000:758.221 JLINK_HasError()
T29B0 000:759.874 JLINK_IsHalted()
T29B0 000:760.163 - 0.300ms returns FALSE
T29B0 000:760.187 JLINK_HasError()
T29B0 000:761.858 JLINK_IsHalted()
T29B0 000:762.145 - 0.298ms returns FALSE
T29B0 000:762.169 JLINK_HasError()
T29B0 000:763.978 JLINK_IsHalted()
T29B0 000:765.847   CPU_ReadMem(2 bytes @ 0x20000000)
T29B0 000:766.226 - 2.266ms returns TRUE
T29B0 000:766.259 JLINK_ReadReg(R15 (PC))
T29B0 000:766.288 - 0.034ms returns 0x20000000
T29B0 000:766.302 JLINK_ClrBPEx(BPHandle = 0x00000009)
T29B0 000:766.315 - 0.018ms returns 0x00
T29B0 000:766.329 JLINK_ReadReg(R0)
T29B0 000:766.341 - 0.017ms returns 0x00000000
T29B0 000:767.061 JLINK_WriteMem(0x20000164, 0x29C Bytes, ...)
T29B0 000:767.088   Data:  E0 60 00 20 70 BD 10 B5 04 46 C0 68 20 F0 20 00 ...
T29B0 000:767.119   CPU_WriteMem(668 bytes @ 0x20000164)
T29B0 000:769.297 - 2.260ms returns 0x29C
T29B0 000:769.337 JLINK_WriteMem(0x20000400, 0x164 Bytes, ...)
T29B0 000:769.350   Data:  90 F8 40 30 C4 6B 01 21 01 FA 03 F3 63 60 80 F8 ...
T29B0 000:769.380   CPU_WriteMem(356 bytes @ 0x20000400)
T29B0 000:770.633 - 1.319ms returns 0x164
T29B0 000:770.672 JLINK_HasError()
T29B0 000:770.688 JLINK_WriteReg(R0, 0x08001400)
T29B0 000:770.707 - 0.029ms returns 0
T29B0 000:770.735 JLINK_WriteReg(R1, 0x00000400)
T29B0 000:770.755 - 0.026ms returns 0
T29B0 000:770.770 JLINK_WriteReg(R2, 0x20000164)
T29B0 000:770.781 - 0.016ms returns 0
T29B0 000:770.794 JLINK_WriteReg(R3, 0x00000000)
T29B0 000:770.806 - 0.016ms returns 0
T29B0 000:770.819 JLINK_WriteReg(R4, 0x00000000)
T29B0 000:770.830 - 0.016ms returns 0
T29B0 000:770.843 JLINK_WriteReg(R5, 0x00000000)
T29B0 000:770.854 - 0.016ms returns 0
T29B0 000:770.867 JLINK_WriteReg(R6, 0x00000000)
T29B0 000:770.878 - 0.016ms returns 0
T29B0 000:770.891 JLINK_WriteReg(R7, 0x00000000)
T29B0 000:770.902 - 0.016ms returns 0
T29B0 000:770.915 JLINK_WriteReg(R8, 0x00000000)
T29B0 000:770.926 - 0.016ms returns 0
T29B0 000:770.939 JLINK_WriteReg(R9, 0x20000160)
T29B0 000:770.950 - 0.016ms returns 0
T29B0 000:770.963 JLINK_WriteReg(R10, 0x00000000)
T29B0 000:770.974 - 0.016ms returns 0
T29B0 000:770.987 JLINK_WriteReg(R11, 0x00000000)
T29B0 000:770.998 - 0.016ms returns 0
T29B0 000:771.011 JLINK_WriteReg(R12, 0x00000000)
T29B0 000:771.022 - 0.016ms returns 0
T29B0 000:771.034 JLINK_WriteReg(R13 (SP), 0x20001000)
T29B0 000:771.046 - 0.017ms returns 0
T29B0 000:771.059 JLINK_WriteReg(R14, 0x20000001)
T29B0 000:771.071 - 0.016ms returns 0
T29B0 000:771.084 JLINK_WriteReg(R15 (PC), 0x200000F4)
T29B0 000:771.095 - 0.016ms returns 0
T29B0 000:771.108 JLINK_WriteReg(XPSR, 0x01000000)
T29B0 000:771.119 - 0.016ms returns 0
T29B0 000:771.132 JLINK_WriteReg(MSP, 0x20001000)
T29B0 000:771.143 - 0.016ms returns 0
T29B0 000:771.156 JLINK_WriteReg(PSP, 0x20001000)
T29B0 000:771.176 - 0.025ms returns 0
T29B0 000:771.189 JLINK_WriteReg(CFBP, 0x00000000)
T29B0 000:771.200 - 0.016ms returns 0
T29B0 000:771.214 JLINK_SetBPEx(Addr = 0x20000000, Type = 0xFFFFFFF2)
T29B0 000:771.227 - 0.018ms returns 0x0000000A
T29B0 000:771.240 JLINK_Go()
T29B0 000:771.262   CPU_ReadMem(4 bytes @ 0xE0001000)
T29B0 000:773.570 - 2.355ms
T29B0 000:773.611 JLINK_IsHalted()
T29B0 000:773.964 - 0.372ms returns FALSE
T29B0 000:773.997 JLINK_HasError()
T29B0 000:776.346 JLINK_IsHalted()
T29B0 000:776.725 - 0.398ms returns FALSE
T29B0 000:776.760 JLINK_HasError()
T29B0 000:778.144 JLINK_IsHalted()
T29B0 000:778.646 - 0.526ms returns FALSE
T29B0 000:778.687 JLINK_HasError()
T29B0 000:780.168 JLINK_IsHalted()
T29B0 000:780.599 - 0.449ms returns FALSE
T29B0 000:780.637 JLINK_HasError()
T29B0 000:782.146 JLINK_IsHalted()
T29B0 000:782.617 - 0.490ms returns FALSE
T29B0 000:782.651 JLINK_HasError()
T29B0 000:784.153 JLINK_IsHalted()
T29B0 000:784.468 - 0.339ms returns FALSE
T29B0 000:784.507 JLINK_HasError()
T29B0 000:786.118 JLINK_IsHalted()
T29B0 000:786.488 - 0.392ms returns FALSE
T29B0 000:786.530 JLINK_HasError()
T29B0 000:787.707 JLINK_IsHalted()
T29B0 000:788.001 - 0.309ms returns FALSE
T29B0 000:788.030 JLINK_HasError()
T29B0 000:789.988 JLINK_IsHalted()
T29B0 000:790.353 - 0.383ms returns FALSE
T29B0 000:790.386 JLINK_HasError()
T29B0 000:792.039 JLINK_IsHalted()
T29B0 000:792.404 - 0.383ms returns FALSE
T29B0 000:792.437 JLINK_HasError()
T29B0 000:794.135 JLINK_IsHalted()
T29B0 000:794.453 - 0.342ms returns FALSE
T29B0 000:794.493 JLINK_HasError()
T29B0 000:796.085 JLINK_IsHalted()
T29B0 000:796.469 - 0.402ms returns FALSE
T29B0 000:796.502 JLINK_HasError()
T29B0 000:798.134 JLINK_IsHalted()
T29B0 000:798.657 - 0.547ms returns FALSE
T29B0 000:798.697 JLINK_HasError()
T29B0 000:800.060 JLINK_IsHalted()
T29B0 000:800.432 - 0.390ms returns FALSE
T29B0 000:800.466 JLINK_HasError()
T29B0 000:802.058 JLINK_IsHalted()
T29B0 000:802.385 - 0.345ms returns FALSE
T29B0 000:802.419 JLINK_HasError()
T29B0 000:803.692 JLINK_IsHalted()
T29B0 000:804.114 - 0.441ms returns FALSE
T29B0 000:804.148 JLINK_HasError()
T29B0 000:805.510 JLINK_IsHalted()
T29B0 000:807.589   CPU_ReadMem(2 bytes @ 0x20000000)
T29B0 000:807.977 - 2.485ms returns TRUE
T29B0 000:808.014 JLINK_ReadReg(R15 (PC))
T29B0 000:808.032 - 0.024ms returns 0x20000000
T29B0 000:808.047 JLINK_ClrBPEx(BPHandle = 0x0000000A)
T29B0 000:808.060 - 0.018ms returns 0x00
T29B0 000:808.077 JLINK_ReadReg(R0)
T29B0 000:808.090 - 0.018ms returns 0x00000000
T29B0 000:808.829 JLINK_WriteMem(0x20000164, 0x29C Bytes, ...)
T29B0 000:808.856   Data:  84 4E 85 4F DF F8 14 C2 DF F8 14 92 DF F8 14 A2 ...
T29B0 000:808.886   CPU_WriteMem(668 bytes @ 0x20000164)
T29B0 000:810.746 - 1.942ms returns 0x29C
T29B0 000:810.786 JLINK_WriteMem(0x20000400, 0x164 Bytes, ...)
T29B0 000:810.800   Data:  08 46 30 BD 08 04 02 40 F8 FF FD BF 00 00 02 40 ...
T29B0 000:810.830   CPU_WriteMem(356 bytes @ 0x20000400)
